! TOUCHSTONE file generated by CST MICROWAVE STUDIO
! Date and time: Tue Jan  7 09:45:48 2020
! Project name: OSHPark_FR408_Transition1.cst
! Parameters = {BottomSupport_Left_YMax=4.76; BottomSupport_Left_YMin=3.74; BottomSupport_Right_YMax=-3.74; BottomSupport_Right_YMin=-4.76; BottomSupport_XMax=11.64; BottomSupport_XMin=6.89; BottomSupport_ZMax=-1.64084; BottomSupport_ZMin=-3.58; Cu1_Thickness=0.03556; Cu2_Thickness=0.01778; Fr408Core_Thickness=1.1938; PCBThickness=1.6256; Prepreg1_Zmin=-0.20574; Prepreg_Thickness=0.17018; RFTraceYMax=0.17145; RFTrace_XMax=15; RFTrace_XMin=11.46; RFTrace_YMin=-0.17145; SMA_CenterCond_Inner_XMax=11.64; SMA_CenterCond_Radius=0.6; SMA_Dielectric_InnerRadius=0.6; SMA_Dielectric_OuterRadius=2; SMA_Dielectric_XMax=5.62; SMA_Dielectric_XMin=0; SMA_Dielectric_YCenter=0; SMA_Dielectric_ZCenter=0; SMA_Footprint_Center_XMax=12.49; SMA_Footprint_Center_XMin=7.74; SMA_Footprint_Center_YMax=0.75; SMA_Footprint_Center_YMin=-0.75; SMA_OuterCond_InnerRadius=2; SMA_OuterCond_OuterRadius=3; SMA_OuterCond_XMax=6.89; SMA_XMax=6.67; SMA_XMin=0; SMA_YCenter=0; SMA_ZCenter=0; TopSupport_ZMax=1.02; TopSupport_ZMin=0; Via1_XCenter=7.5; Via1_YCenter=-4.25; Via2_XCenter=8.75; Via2_YCenter=-4.25; Via3_XCenter=10; Via3_YCenter=-4.25; Via4_XCenter=11.25; Via4_YCenter=-4.25; Via5_XCenter=7.5; Via5_YCenter=4.25; Via6_XCenter=8.75; Via6_YCenter=4.25; Via7_XCenter=10; Via7_YCenter=4.25; Via8_XCenter=11.25; Via8_YCenter=4.25; ViaInnerRadius=0; ViaOuterRadius=0.381}
! Header version: 2015
! Port assignment regex: !\s*Touchstone port\s*([0-9]+)\s*=\s*CST MWS port\s*([0-9]+)\s*\(\"(.*)\"\)(\s*mode\s*([0-9]+))?.*
! Touchstone port assignment:
! Touchstone port 1 = CST MWS port 1 ("")
! Touchstone port 2 = CST MWS port 2 ("")
# GHz S MA R 50
0                       0.128379               0         0.880332               0         0.880332               0         0.110897               0
0.0053                 0.0128023        -22.0486         0.999929       -0.161296         0.999929       -0.161296        0.0130605         155.302
0.0106                 0.0128087         -22.266         0.999914       -0.306404         0.999914       -0.306404        0.0130521         155.224
0.0159                 0.0127865        -22.1712           0.9999        -0.45588           0.9999        -0.45588        0.0130756         154.839
0.0212                 0.0127572        -21.9975         0.999885       -0.606448         0.999885       -0.606448        0.0131072         154.377
0.0265                 0.0127253        -21.7913         0.999871       -0.757454         0.999871       -0.757454        0.0131421         153.886
0.0318                 0.0126923        -21.5678         0.999857       -0.908678         0.999857       -0.908678         0.013179         153.381
0.0371                 0.0126589        -21.3337         0.999842        -1.06003         0.999842        -1.06003         0.013217         152.869
0.0424                 0.0126252        -21.0927         0.999828        -1.21145         0.999828        -1.21145        0.0132557         152.353
0.0477                 0.0125915         -20.846         0.999813        -1.36293         0.999813        -1.36293        0.0132951         151.835
0.053                  0.0125582        -20.5948         0.999798        -1.51445         0.999798        -1.51445        0.0133352         151.316
0.0583                 0.0125252        -20.3396         0.999784        -1.66599         0.999784        -1.66599        0.0133759         150.797
0.0636                 0.0124924        -20.0811         0.999769        -1.81755         0.999769        -1.81755         0.013417         150.278
0.0689                   0.01246        -19.8198         0.999754        -1.96913         0.999754        -1.96913        0.0134584         149.761
0.0742                 0.0124279        -19.5558          0.99974        -2.12072          0.99974        -2.12072        0.0135003         149.244
0.0795                 0.0123962        -19.2892         0.999725        -2.27232         0.999725        -2.27232        0.0135426         148.728
0.0848                 0.0123649        -19.0201          0.99971        -2.42392          0.99971        -2.42392        0.0135852         148.213
0.0901                  0.012334        -18.7488         0.999695        -2.57554         0.999695        -2.57554        0.0136281           147.7
0.0954                 0.0123036        -18.4753         0.999681        -2.72716         0.999681        -2.72716        0.0136714         147.188
0.1007                 0.0122736        -18.1996         0.999666        -2.87878         0.999666        -2.87878        0.0137151         146.677
0.106                   0.012244        -17.9218         0.999651        -3.03041         0.999651        -3.03041         0.013759         146.168
0.1113                 0.0122149        -17.6419         0.999636        -3.18204         0.999636        -3.18204        0.0138033         145.661
0.1166                 0.0121862        -17.3601         0.999621        -3.33367         0.999621        -3.33367        0.0138479         145.155
0.1219                  0.012158        -17.0763         0.999606        -3.48531         0.999606        -3.48531        0.0138927          144.65
0.1272                 0.0121303        -16.7905         0.999591        -3.63695         0.999591        -3.63695        0.0139379         144.147
0.1325                  0.012103        -16.5029         0.999576        -3.78859         0.999576        -3.78859        0.0139834         143.646
0.1378                 0.0120762        -16.2134         0.999561        -3.94023         0.999561        -3.94023        0.0140291         143.146
0.1431                   0.01205         -15.922         0.999545        -4.09187         0.999545        -4.09187        0.0140752         142.648
0.1484                 0.0120242        -15.6289          0.99953        -4.24352          0.99953        -4.24352        0.0141215         142.151
0.1537                 0.0119988         -15.334         0.999515        -4.39516         0.999515        -4.39516        0.0141681         141.656
0.159                   0.011974        -15.0373           0.9995        -4.54681           0.9995        -4.54681         0.014215         141.163
0.1643                 0.0119497        -14.7389         0.999484        -4.69846         0.999484        -4.69846        0.0142622         140.671
0.1696                  0.011926        -14.4388         0.999469        -4.85011         0.999469        -4.85011        0.0143096         140.181
0.1749                 0.0119027         -14.137         0.999454        -5.00176         0.999454        -5.00176        0.0143573         139.692
0.1802                 0.0118799        -13.8335         0.999438        -5.15341         0.999438        -5.15341        0.0144052         139.205
0.1855                 0.0118577        -13.5285         0.999423        -5.30506         0.999423        -5.30506        0.0144535         138.719
0.1908                 0.0118359        -13.2218         0.999407        -5.45672         0.999407        -5.45672         0.014502         138.235
0.1961                 0.0118148        -12.9135         0.999392        -5.60837         0.999392        -5.60837        0.0145507         137.753
0.2014                 0.0117941        -12.6037         0.999376        -5.76002         0.999376        -5.76002        0.0145997         137.272
0.2067                  0.011774        -12.2924         0.999361        -5.91168         0.999361        -5.91168        0.0146489         136.792
0.212                  0.0117544        -11.9796         0.999345        -6.06333         0.999345        -6.06333        0.0146984         136.314
0.2173                 0.0117354        -11.6654          0.99933        -6.21499          0.99933        -6.21499        0.0147482         135.838
0.2226                 0.0117169        -11.3497         0.999314        -6.36664         0.999314        -6.36664        0.0147982         135.363
0.2279                 0.0116989        -11.0326         0.999298         -6.5183         0.999298         -6.5183        0.0148484          134.89
0.2332                 0.0116815        -10.7141         0.999282        -6.66996         0.999282        -6.66996        0.0148989         134.418
0.2385                 0.0116647        -10.3943         0.999267        -6.82161         0.999267        -6.82161        0.0149496         133.948
0.2438                 0.0116484        -10.0731         0.999251        -6.97327         0.999251        -6.97327        0.0150006         133.479
0.2491                 0.0116327        -9.75071         0.999235        -7.12493         0.999235        -7.12493        0.0150518         133.012
0.2544                 0.0116176        -9.42705         0.999219        -7.27659         0.999219        -7.27659        0.0151032         132.546
0.2597                  0.011603        -9.10217         0.999203        -7.42825         0.999203        -7.42825        0.0151549         132.082
0.265                   0.011589        -8.77611         0.999187        -7.57991         0.999187        -7.57991        0.0152068         131.619
0.2703                 0.0115756         -8.4489         0.999171        -7.73157         0.999171        -7.73157        0.0152589         131.157
0.2756                 0.0115627        -8.12058         0.999155        -7.88323         0.999155        -7.88323        0.0153113         130.697
0.2809                 0.0115505        -7.79119         0.999139        -8.03489         0.999139        -8.03489        0.0153638         130.239
0.2862                 0.0115388        -7.46075         0.999123        -8.18655         0.999123        -8.18655        0.0154166         129.782
0.2915                 0.0115277         -7.1293         0.999107        -8.33821         0.999107        -8.33821        0.0154696         129.326
0.2968                 0.0115172        -6.79689         0.999091        -8.48987         0.999091        -8.48987        0.0155229         128.871
0.3021                 0.0115073        -6.46355         0.999075        -8.64153         0.999075        -8.64153        0.0155763         128.418
0.3074                  0.011498        -6.12931         0.999058        -8.79319         0.999058        -8.79319          0.01563         127.967
0.3127                 0.0114892        -5.79423         0.999042        -8.94485         0.999042        -8.94485        0.0156839         127.517
0.318                  0.0114811        -5.45832         0.999026        -9.09651         0.999026        -9.09651         0.015738         127.068
0.3233                 0.0114736        -5.12165         0.999009        -9.24817         0.999009        -9.24817        0.0157923          126.62
0.3286                 0.0114667        -4.78424         0.998993        -9.39984         0.998993        -9.39984        0.0158468         126.174
0.3339                 0.0114604        -4.44614         0.998977         -9.5515         0.998977         -9.5515        0.0159015         125.729
0.3392                 0.0114547        -4.10738          0.99896        -9.70316          0.99896        -9.70316        0.0159565         125.286
0.3445                 0.0114496        -3.76801         0.998944        -9.85482         0.998944        -9.85482        0.0160116         124.844
0.3498                 0.0114452        -3.42808         0.998927        -10.0065         0.998927        -10.0065         0.016067         124.403
0.3551                 0.0114413        -3.08761         0.998911        -10.1582         0.998911        -10.1582        0.0161225         123.963
0.3604                 0.0114381        -2.74667         0.998894        -10.3098         0.998894        -10.3098        0.0161783         123.525
0.3657                 0.0114355        -2.40527         0.998877        -10.4615         0.998877        -10.4615        0.0162342         123.088
0.371                  0.0114335        -2.06348         0.998861        -10.6131         0.998861        -10.6131        0.0162904         122.652
0.3763                 0.0114321        -1.72135         0.998844        -10.7648         0.998844        -10.7648        0.0163467         122.218
0.3816                 0.0114314         -1.3789         0.998827        -10.9165         0.998827        -10.9165        0.0164033         121.785
0.3869                 0.0114312        -1.03617         0.998811        -11.0681         0.998811        -11.0681          0.01646         121.353
0.3922                 0.0114317       -0.693229         0.998794        -11.2198         0.998794        -11.2198        0.0165169         120.922
0.3975                 0.0114329       -0.350105         0.998777        -11.3715         0.998777        -11.3715        0.0165741         120.493
0.4028                 0.0114346     -0.00685565          0.99876        -11.5231          0.99876        -11.5231        0.0166314         120.064
0.4081                  0.011437        0.336485         0.998743        -11.6748         0.998743        -11.6748        0.0166889         119.637
0.4134                   0.01144        0.679876         0.998726        -11.8265         0.998726        -11.8265        0.0167466         119.212
0.4187                 0.0114437         1.02327         0.998709        -11.9781         0.998709        -11.9781        0.0168045         118.787
0.424                  0.0114479         1.36661         0.998692        -12.1298         0.998692        -12.1298        0.0168626         118.363
0.4293                 0.0114529         1.70986         0.998675        -12.2815         0.998675        -12.2815        0.0169209         117.941
0.4346                 0.0114584         2.05297         0.998658        -12.4331         0.998658        -12.4331        0.0169793          117.52
0.4399                 0.0114646         2.39592         0.998641        -12.5848         0.998641        -12.5848         0.017038           117.1
0.4452                 0.0114714         2.73863         0.998624        -12.7365         0.998624        -12.7365        0.0170968         116.681
0.4505                 0.0114789         3.08108         0.998607        -12.8881         0.998607        -12.8881        0.0171558         116.264
0.4558                  0.011487         3.42321         0.998589        -13.0398         0.998589        -13.0398         0.017215         115.847
0.4611                 0.0114957         3.76498         0.998572        -13.1915         0.998572        -13.1915        0.0172743         115.432
0.4664                  0.011505         4.10635         0.998555        -13.3431         0.998555        -13.3431        0.0173339         115.017
0.4717                  0.011515         4.44728         0.998538        -13.4948         0.998538        -13.4948        0.0173936         114.604
0.477                  0.0115257         4.78772          0.99852        -13.6465          0.99852        -13.6465        0.0174535         114.192
0.4823                 0.0115369         5.12761         0.998503        -13.7981         0.998503        -13.7981        0.0175136         113.781
0.4876                 0.0115488         5.46693         0.998485        -13.9498         0.998485        -13.9498        0.0175739         113.371
0.4929                 0.0115614         5.80564         0.998468        -14.1015         0.998468        -14.1015        0.0176343         112.963
0.4982                 0.0115745         6.14369          0.99845        -14.2531          0.99845        -14.2531        0.0176949         112.555
0.5035                 0.0115883         6.48104         0.998433        -14.4048         0.998433        -14.4048        0.0177557         112.148
0.5088                 0.0116028         6.81762         0.998415        -14.5565         0.998415        -14.5565        0.0178167         111.742
0.5141                 0.0116178         7.15342         0.998398        -14.7081         0.998398        -14.7081        0.0178778         111.338
0.5194                 0.0116335          7.4884          0.99838        -14.8598          0.99838        -14.8598        0.0179391         110.934
0.5247                 0.0116499         7.82252         0.998362        -15.0115         0.998362        -15.0115        0.0180006         110.532
0.53                   0.0116668         8.15573         0.998345        -15.1631         0.998345        -15.1631        0.0180622          110.13
0.5353                 0.0116844         8.48797         0.998327        -15.3148         0.998327        -15.3148        0.0181241          109.73
0.5406                 0.0117026         8.81923         0.998309        -15.4665         0.998309        -15.4665         0.018186          109.33
0.5459                 0.0117214         9.14947         0.998291        -15.6181         0.998291        -15.6181        0.0182482         108.932
0.5512                 0.0117409         9.47865         0.998273        -15.7698         0.998273        -15.7698        0.0183105         108.534
0.5565                  0.011761         9.80674         0.998256        -15.9215         0.998256        -15.9215         0.018373         108.138
0.5618                 0.0117817         10.1337         0.998238        -16.0732         0.998238        -16.0732        0.0184357         107.742
0.5671                  0.011803         10.4594          0.99822        -16.2248          0.99822        -16.2248        0.0184985         107.348
0.5724                  0.011825          10.784         0.998202        -16.3765         0.998202        -16.3765        0.0185615         106.954
0.5777                 0.0118475         11.1073         0.998184        -16.5282         0.998184        -16.5282        0.0186247         106.562
0.583                  0.0118707         11.4293         0.998166        -16.6798         0.998166        -16.6798         0.018688          106.17
0.5883                 0.0118945           11.75         0.998147        -16.8315         0.998147        -16.8315        0.0187515         105.779
0.5936                 0.0119189         12.0694         0.998129        -16.9832         0.998129        -16.9832        0.0188151         105.389
0.5989                 0.0119439         12.3874         0.998111        -17.1348         0.998111        -17.1348        0.0188789         105.001
0.6042                 0.0119696          12.704         0.998093        -17.2865         0.998093        -17.2865        0.0189429         104.613
0.6095                 0.0119958         13.0191         0.998075        -17.4382         0.998075        -17.4382         0.019007         104.226
0.6148                 0.0120226         13.3328         0.998056        -17.5899         0.998056        -17.5899        0.0190713         103.839
0.6201                 0.0120501          13.645         0.998038        -17.7415         0.998038        -17.7415        0.0191358         103.454
0.6254                 0.0120781         13.9556          0.99802        -17.8932          0.99802        -17.8932        0.0192004          103.07
0.6307                 0.0121067         14.2647         0.998001        -18.0449         0.998001        -18.0449        0.0192652         102.686
0.636                  0.0121359         14.5722         0.997983        -18.1966         0.997983        -18.1966        0.0193301         102.304
0.6413                 0.0121658         14.8781         0.997964        -18.3482         0.997964        -18.3482        0.0193952         101.922
0.6466                 0.0121962         15.1824         0.997946        -18.4999         0.997946        -18.4999        0.0194605         101.541
